#  HZ   S   DB   R     50.0 
! Rohde & Schwarz ZVL 
! 
! 
! 
 8.500000000000000E8    -7.608375947846366E1   3.773549496358533E1  
 8.500951776649746E8    -8.164396660376782E1  -1.618922470243363E2  
 8.501903553299493E8    -7.807371956341217E1  -9.753089923952975E1  
 8.502855329949238E8    -8.356294377604164E1  -1.647422318067670E2  
 8.503807106598985E8    -7.901342922234079E1   2.511703599402486E1  
 8.504758883248731E8    -8.413072541161064E1  -1.612410512887132E2  
 8.505710659898477E8    -8.766136139436820E1  -4.252896996845013E1  
 8.506662436548224E8    -9.357177472806131E1   1.552132558357401E2  
 8.507614213197969E8    -8.675765595662939E1   4.250809758829610  
 8.508565989847716E8    -8.743526189350661E1   1.724632698786876E2  
 8.509517766497462E8    -8.094518640225746E1   1.053054702750509E2  
 8.510469543147209E8    -8.060258729610176E1   2.766889520827814E1  
 8.511421319796954E8    -8.789522764751148E1   1.136933111606834E2  
 8.512373096446700E8    -9.230632898437889E1   7.312632271672005E1  
 8.513324873096447E8    -7.569180081608364E1  -8.827399053207044E1  
 8.514276649746193E8    -8.341185396018676E1   1.087223454188846E2  
 8.515228426395940E8    -8.522917726574076E1  -1.042728149410025E1  
 8.516180203045685E8    -7.802338717959601E1  -7.173912991159587E1  
 8.517131979695431E8    -8.168243464340232E1  -7.551565959017919  
 8.518083756345178E8    -8.356696483524445E1   1.174324945306562E2  
 8.519035532994924E8    -8.691671302021642E1   1.417506670912477E2  
 8.519987309644671E8    -7.601066189171904E1  -6.075365316857637E1  
 8.520939086294416E8    -8.408386819778859E1   2.185005895472207E1  
 8.521890862944162E8    -7.288014478894348E1  -6.942538186372718E1  
 8.522842639593909E8    -7.859585139248310E1  -2.599059299723525E1  
 8.523794416243655E8    -7.836830631117891E1   4.284435546182275E1  
 8.524746192893401E8    -8.459777115417722E1   5.863261584320804E1  
 8.525697969543147E8    -8.753873523641775E1  -1.198549430601532E2  
 8.526649746192894E8    -7.576912033497472E1  -7.551206594476123E1  
 8.527601522842640E8    -8.457163857055110E1  -8.774408466929704E1  
 8.528553299492385E8    -7.754451292537992E1  -7.679039480821879E1  
 8.529505076142132E8    -8.366446138854239E1   3.443744311814457E1  
 8.530456852791878E8    -7.953135197447701E1  -7.891281363410690E1  
 8.531408629441625E8    -8.484371861134223E1  -6.669579497664923E1  
 8.532360406091371E8    -7.911182130795127E1  -6.241356335100520E1  
 8.533312182741116E8    -8.192848741554177E1   1.410515111493997E2  
 8.534263959390863E8    -7.538922207170759E1  -8.543834059937893E1  
 8.535215736040609E8    -7.914464599155862E1   1.995934756472160E1  
 8.536167512690356E8    -7.668976491824054E1  -4.073220809502088E1  
 8.537119289340102E8    -7.694643999626004E1  -3.701924226213590E1  
 8.538071065989847E8    -8.557225983329457E1   8.981454417111186E1  
 8.539022842639594E8    -7.824504929186369E1  -6.729010909295299E1  
 8.539974619289340E8    -7.415542045157952E1  -2.109862342130157E1  
 8.540926395939087E8    -8.009535036506394E1  -4.826492595601194E1  
 8.541878172588832E8    -8.130649557322717E1  -7.353625256546754E1  
 8.542829949238579E8    -7.895332066198196E1  -2.218908309363696E1  
 8.543781725888325E8    -7.526809482712417E1  -5.156748021077431E1  
 8.544733502538071E8    -8.131611868373594E1  -1.064664901625551E2  
 8.545685279187818E8    -8.113231035138190E1  -7.010954688081090E1  
 8.546637055837563E8    -7.395834893314829E1  -6.035036669244805E1  
 8.547588832487310E8    -7.619130389790436E1  -3.879895364969082E1  
 8.548540609137056E8    -8.163050511573596E1  -1.377762325047597E1  
 8.549492385786802E8    -7.240469197456147E1  -7.789017631480554E1  
 8.550444162436549E8    -7.495579111069232E1  -1.062325624629485E2  
 8.551395939086294E8    -7.444317493706878E1  -8.665303312564925E1  
 8.552347715736041E8    -7.312921618627657E1  -6.450644779610610E1  
 8.553299492385787E8    -7.630993621877039E1  -4.889774787941690E1  
 8.554251269035533E8    -7.481644376384271E1  -9.352645791836862E1  
 8.555203045685279E8    -7.408079981345755E1  -8.000531817889169E1  
 8.556154822335025E8    -7.767065737386224E1  -6.214186153929123E1  
 8.557106598984772E8    -7.097871750733006E1  -8.466487162699772E1  
 8.558058375634518E8    -7.600064686099979E1  -6.691760821785429E1  
 8.559010152284263E8    -7.292092449449052E1  -1.008005208255630E2  
 8.559961928934010E8    -6.928808461439742E1  -6.996986011342101E1  
 8.560913705583756E8    -6.992185782411936E1  -9.261889078268301E1  
 8.561865482233503E8    -7.010626428160178E1  -8.983008540614291E1  
 8.562817258883249E8    -7.341461778815452E1  -8.081604344714671E1  
 8.563769035532996E8    -7.109378677697725E1  -8.183985483801439E1  
 8.564720812182741E8    -6.866979216029914E1  -7.187304332927991E1  
 8.565672588832487E8    -6.999605455178340E1  -7.509966502140352E1  
 8.566624365482234E8    -7.003650591911526E1  -8.201973187540604E1  
 8.567576142131980E8    -6.791078066506707E1  -8.908679799447855E1  
 8.568527918781726E8    -6.937876046674533E1  -8.586999038707722E1  
 8.569479695431472E8    -6.943205478276133E1  -8.404038545698221E1  
 8.570431472081218E8    -6.816625249246874E1  -8.989933791146737E1  
 8.571383248730965E8    -6.730294933362382E1  -8.350745170334194E1  
 8.572335025380710E8    -6.759181235920570E1  -7.494082794999440E1  
 8.573286802030457E8    -6.800429483246181E1  -8.811108266086248E1  
 8.574238578680203E8    -6.791057572068442E1  -7.402339109149872E1  
 8.575190355329949E8    -6.781698538767076E1  -8.547235697293645E1  
 8.576142131979696E8    -6.759718074560634E1  -8.624244537021313E1  
 8.577093908629441E8    -6.698705735701354E1  -9.058224273375218E1  
 8.578045685279188E8    -6.714615297865255E1  -9.122737397763116E1  
 8.578997461928934E8    -6.539209775453055E1  -7.503914317537593E1  
 8.579949238578681E8    -6.544461937186870E1  -8.380064613536020E1  
 8.580901015228427E8    -6.359967412245182E1  -8.705087954847818E1  
 8.581852791878172E8    -6.436434900996083E1  -9.565200837343853E1  
 8.582804568527919E8    -6.359607947266298E1  -8.575566735743274E1  
 8.583756345177665E8    -6.328545263512615E1  -8.718784980295659E1  
 8.584708121827412E8    -6.395517402115305E1  -8.259105493862442E1  
 8.585659898477157E8    -6.378368491245981E1  -9.101178929125204E1  
 8.586611675126903E8    -6.308588102805838E1  -1.020305900576996E2  
 8.587563451776650E8    -6.230445673768355E1  -9.527745071510270E1  
 8.588515228426396E8    -6.216136647209541E1  -9.929411798499270E1  
 8.589467005076143E8    -6.304833712901674E1  -1.000396290782997E2  
 8.590418781725888E8    -6.164960414864697E1  -9.766584461185252E1  
 8.591370558375634E8    -6.115025726566264E1  -9.925124602306981E1  
 8.592322335025381E8    -6.169651878155782E1  -1.076994526840666E2  
 8.593274111675127E8    -6.067557283698347E1  -1.020739516226713E2  
 8.594225888324873E8    -6.124228715674949E1  -1.017662014956647E2  
 8.595177664974619E8    -6.079832589816203E1  -9.469660995040633E1  
 8.596129441624366E8    -6.013847108538987E1  -9.404031742293654E1  
 8.597081218274112E8    -5.908528033733727E1  -1.082313717735867E2  
 8.598032994923858E8    -5.879973173295340E1  -1.015868447102966E2  
 8.598984771573604E8    -5.926000111072813E1  -1.046277849544585E2  
 8.599936548223350E8    -5.909491191582215E1  -1.080987816704530E2  
 8.600888324873097E8    -5.887814521296956E1  -1.024863810936026E2  
 8.601840101522843E8    -5.837606174395567E1  -1.089171891833855E2  
 8.602791878172588E8    -5.855332522021842E1  -1.075751211327442E2  
 8.603743654822335E8    -5.820627142309784E1  -1.072613017441158E2  
 8.604695431472081E8    -5.691198398816333E1  -1.117182685412644E2  
 8.605647208121828E8    -5.771894808999460E1  -1.100861987189701E2  
 8.606598984771574E8    -5.581207961184288E1  -1.112328484058406E2  
 8.607550761421319E8    -5.616113893228697E1  -1.070970048386683E2  
 8.608502538071066E8    -5.591719669963321E1  -1.138236592369619E2  
 8.609454314720812E8    -5.596040164917562E1  -1.128988878722648E2  
 8.610406091370559E8    -5.501676881507900E1  -1.161731216191161E2  
 8.611357868020304E8    -5.519555847827386E1  -1.155740018400445E2  
 8.612309644670051E8    -5.524951533298413E1  -1.185002060744304E2  
 8.613261421319797E8    -5.489761520716176E1  -1.190423312199230E2  
 8.614213197969543E8    -5.425301827731255E1  -1.202660077652266E2  
 8.615164974619290E8    -5.405814891298974E1  -1.198470469421971E2  
 8.616116751269035E8    -5.385930393192947E1  -1.217772906460388E2  
 8.617068527918782E8    -5.309494603042871E1  -1.220981804153266E2  
 8.618020304568528E8    -5.285149939830863E1  -1.166522117609851E2  
 8.618972081218274E8    -5.261672935727197E1  -1.216401102414444E2  
 8.619923857868021E8    -5.233782676966830E1  -1.225316705272037E2  
 8.620875634517766E8    -5.236147282363973E1  -1.251575601410743E2  
 8.621827411167513E8    -5.218520817492004E1  -1.244351175149570E2  
 8.622779187817259E8    -5.144978508671895E1  -1.248069152992237E2  
 8.623730964467005E8    -5.116905474156097E1  -1.252572978253367E2  
 8.624682741116751E8    -5.070893043010455E1  -1.254981055944449E2  
 8.625634517766497E8    -5.053771560128483E1  -1.284049343577485E2  
 8.626586294416244E8    -5.023317015813088E1  -1.282913887151073E2  
 8.627538071065990E8    -4.993645617433738E1  -1.286770846615501E2  
 8.628489847715735E8    -4.953510648906462E1  -1.320047138532715E2  
 8.629441624365482E8    -4.942932084972005E1  -1.307370128219926E2  
 8.630393401015228E8    -4.926160442498001E1  -1.318289429758304E2  
 8.631345177664975E8    -4.898927545069772E1  -1.336782102085813E2  
 8.632296954314721E8    -4.816058126796999E1  -1.339319755881102E2  
 8.633248730964468E8    -4.793747832429884E1  -1.355477085062107E2  
 8.634200507614213E8    -4.759304721531499E1  -1.364874328323006E2  
 8.635152284263959E8    -4.739336158965889E1  -1.371672837839552E2  
 8.636104060913706E8    -4.704070359115698E1  -1.374729438724779E2  
 8.637055837563452E8    -4.683968744051287E1  -1.386217229766661E2  
 8.638007614213198E8    -4.652700912436880E1  -1.395865611818974E2  
 8.638959390862944E8    -4.602686926733001E1  -1.411440791412855E2  
 8.639911167512690E8    -4.594123015999962E1  -1.419384551604272E2  
 8.640862944162437E8    -4.560824923099220E1  -1.428475843128608E2  
 8.641814720812182E8    -4.524810874894560E1  -1.443681718449109E2  
 8.642766497461929E8    -4.477950368998256E1  -1.445883302613465E2  
 8.643718274111675E8    -4.460540888005222E1  -1.441164796862450E2  
 8.644670050761421E8    -4.415263112813374E1  -1.455748099758813E2  
 8.645621827411168E8    -4.383720312639867E1  -1.465316275096955E2  
 8.646573604060913E8    -4.357907843787350E1  -1.477446102080775E2  
 8.647525380710660E8    -4.323331184357096E1  -1.490693517004593E2  
 8.648477157360406E8    -4.288579980908470E1  -1.496967122368040E2  
 8.649428934010153E8    -4.248693323781301E1  -1.506015896461781E2  
 8.650380710659899E8    -4.228118195304182E1  -1.512122121608885E2  
 8.651332487309644E8    -4.187509381632662E1  -1.523550324025050E2  
 8.652284263959391E8    -4.151098411395516E1  -1.534137136511843E2  
 8.653236040609137E8    -4.121663506557488E1  -1.534492196660237E2  
 8.654187817258884E8    -4.079668919797658E1  -1.555585529992391E2  
 8.655139593908629E8    -4.062167454067331E1  -1.562310401835669E2  
 8.656091370558375E8    -4.023179425766442E1  -1.571031463888309E2  
 8.657043147208122E8    -3.988985518570555E1  -1.571774762722307E2  
 8.657994923857868E8    -3.955017545693389E1  -1.589070911230160E2  
 8.658946700507615E8    -3.925977188591512E1  -1.595021010479024E2  
 8.659898477157360E8    -3.887636635681690E1  -1.602161465955301E2  
 8.660850253807106E8    -3.851231457274515E1  -1.618927736137815E2  
 8.661802030456853E8    -3.832218227147453E1  -1.623206732132181E2  
 8.662753807106599E8    -3.785517998150569E1  -1.632081341169406E2  
 8.663705583756346E8    -3.752045491771131E1  -1.644604842087440E2  
 8.664657360406091E8    -3.722268051952629E1  -1.657471610199175E2  
 8.665609137055838E8    -3.686798070874269E1  -1.664445657028003E2  
 8.666560913705584E8    -3.647925966416888E1  -1.673838861898815E2  
 8.667512690355330E8    -3.615339607796382E1  -1.688275953930532E2  
 8.668464467005076E8    -3.579574502958101E1  -1.692586319183178E2  
 8.669416243654822E8    -3.547019303626236E1  -1.708040991877562E2  
 8.670368020304569E8    -3.506541684743085E1  -1.714791684752173E2  
 8.671319796954315E8    -3.477448597689450E1  -1.723106393482328E2  
 8.672271573604060E8    -3.440040200926351E1  -1.732511717623113E2  
 8.673223350253807E8    -3.401685070071596E1  -1.743273796100614E2  
 8.674175126903553E8    -3.368224803015436E1  -1.755675567545957E2  
 8.675126903553300E8    -3.336481208788376E1  -1.761317426353827E2  
 8.676078680203046E8    -3.292217656988744E1  -1.777038432853305E2  
 8.677030456852791E8    -3.252163785104409E1  -1.785651983262720E2  
 8.677982233502538E8    -3.221212681685061E1  -1.792623530821486E2  
 8.678934010152284E8    -3.183095042898146E1   1.795196232888249E2  
 8.679885786802031E8    -3.144209712631100E1   1.792201404566836E2  
 8.680837563451777E8    -3.111367605207113E1   1.778262993206184E2  
 8.681789340101523E8    -3.070359518737697E1   1.765394188635963E2  
 8.682741116751269E8    -3.035553307028636E1   1.753537150935545E2  
 8.683692893401015E8    -2.995004054904630E1   1.746669539980779E2  
 8.684644670050762E8    -2.961619468810676E1   1.734487851473409E2  
 8.685596446700507E8    -2.919750589473961E1   1.723176946867383E2  
 8.686548223350254E8    -2.883441997032921E1   1.720383686230685E2  
 8.687500000000000E8    -2.846801016237835E1   1.701512649727929E2  
 8.688451776649746E8    -2.809424615415190E1   1.693565204744546E2  
 8.689403553299493E8    -2.766215652634482E1   1.682921148823994E2  
 8.690355329949238E8    -2.727722349133937E1   1.672356258466796E2  
 8.691307106598985E8    -2.689735593851550E1   1.660751275575276E2  
 8.692258883248731E8    -2.653242025877870E1   1.646060128010209E2  
 8.693210659898477E8    -2.609871850544116E1   1.636708486432144E2  
 8.694162436548224E8    -2.572452927833905E1   1.622598940623965E2  
 8.695114213197969E8    -2.532019978497174E1   1.615295185346185E2  
 8.696065989847716E8    -2.489521658150802E1   1.602493842271199E2  
 8.697017766497462E8    -2.448967365937464E1   1.589390393113498E2  
 8.697969543147209E8    -2.408777795120409E1   1.581736915255964E2  
 8.698921319796954E8    -2.366307414260902E1   1.567792337357257E2  
 8.699873096446700E8    -2.326201015314520E1   1.558714095774840E2  
 8.700824873096447E8    -2.284857288982384E1   1.543044240438250E2  
 8.701776649746193E8    -2.243102344313224E1   1.532293505283809E2  
 8.702728426395940E8    -2.200399377464266E1   1.521086864425411E2  
 8.703680203045685E8    -2.157923426169945E1   1.512798740529044E2  
 8.704631979695431E8    -2.115286809319537E1   1.494971548431853E2  
 8.705583756345178E8    -2.072542417231689E1   1.487008400243783E2  
 8.706535532994924E8    -2.028504162207317E1   1.477898717536227E2  
 8.707487309644671E8    -1.986041803638805E1   1.460639792808012E2  
 8.708439086294416E8    -1.941658677174923E1   1.449665389478869E2  
 8.709390862944162E8    -1.896839524594693E1   1.437094442987157E2  
 8.710342639593909E8    -1.854384099412437E1   1.425322743829453E2  
 8.711294416243655E8    -1.808654877885611E1   1.409615951705105E2  
 8.712246192893401E8    -1.762135981434714E1   1.399322445047399E2  
 8.713197969543147E8    -1.717633119706814E1   1.384389669916141E2  
 8.714149746192894E8    -1.673895724374219E1   1.370504956441031E2  
 8.715101522842640E8    -1.626923162625081E1   1.362222306690420E2  
 8.716053299492385E8    -1.580861195806455E1   1.349313402851260E2  
 8.717005076142132E8    -1.534465297043145E1   1.326513831630751E2  
 8.717956852791878E8    -1.486657222852189E1   1.317386749587299E2  
 8.718908629441625E8    -1.440306555407491E1   1.305756503986015E2  
 8.719860406091371E8    -1.392421457664586E1   1.290793452719380E2  
 8.720812182741116E8    -1.343214293045647E1   1.273356001642691E2  
 8.721763959390863E8    -1.295475399940984E1   1.262224836335048E2  
 8.722715736040609E8    -1.246497189894894E1   1.247171160822341E2  
 8.723667512690356E8    -1.196831640488519E1   1.234488181641072E2  
 8.724619289340102E8    -1.145953001041426E1   1.222154725506693E2  
 8.725571065989847E8    -1.097249039066799E1   1.203225392169617E2  
 8.726522842639594E8    -1.044938515674210E1   1.189511446325791E2  
 8.727474619289340E8    -9.946941684487376   1.174170345450978E2  
 8.728426395939087E8    -9.431828536388517   1.156894747570955E2  
 8.729378172588832E8    -8.911987496770793   1.142971498791170E2  
 8.730329949238579E8    -8.385636909643656   1.121428996155609E2  
 8.731281725888325E8    -7.864334039868180   1.110993487701839E2  
 8.732233502538071E8    -7.318872485946981   1.089238938994582E2  
 8.733185279187818E8    -6.783742832347427   1.069367440302105E2  
 8.734137055837563E8    -6.232706701103910   1.057106320106783E2  
 8.735088832487310E8    -5.688458926966017   1.037131057835626E2  
 8.736040609137056E8    -5.131644338093498   1.022727694463731E2  
 8.736992385786802E8    -4.563798935990096   1.004776491870121E2  
 8.737944162436549E8    -4.001320085422758   9.846527938615985E1  
 8.738895939086294E8    -3.420156368161582   9.629781954145611E1  
 8.739847715736041E8    -2.844752822124828   9.458202049219146E1  
 8.740799492385787E8    -2.257130020744824   9.275218477758894E1  
 8.741751269035533E8    -1.664490131353581   9.045503156009006E1  
 8.742703045685279E8    -1.062204131697182   8.841598743793406E1  
 8.743654822335025E8    -4.531606027666426E-1   8.627823049350218E1  
 8.744606598984772E8     1.600360619874567E-1   8.418812531130426E1  
 8.745558375634518E8     7.812400543311719E-1   8.218394128433383E1  
 8.746510152284263E8     1.402275436739161   7.926644960730893E1  
 8.747461928934010E8     2.039158490937537   7.747785996594512E1  
 8.748413705583756E8     2.677634898974763   7.495094956267940E1  
 8.749365482233503E8     3.337545836822490   7.207669340414313E1  
 8.750317258883249E8     3.990982453511407   6.998044510357317E1  
 8.751269035532996E8     4.658857084058946   6.735648002675880E1  
 8.752220812182741E8     5.333903119350688   6.416684297877559E1  
 8.753172588832487E8     6.016056405874033   6.170393991606155E1  
 8.754124365482234E8     6.697948432808992   5.854711990053100E1  
 8.755076142131980E8     7.411100421987343   5.556706484812286E1  
 8.756027918781726E8     8.097693225193146   5.234362863224268E1  
 8.756979695431472E8     8.807492284927365   4.902796328811951E1  
 8.757931472081218E8     9.526182053647611   4.569678894541785E1  
 8.758883248730965E8     1.025521861720767E1   4.188169745061288E1  
 8.759835025380710E8     1.097332227369354E1   3.879443934124778E1  
 8.760786802030457E8     1.170790947373033E1   3.474721781078199E1  
 8.761738578680203E8     1.244117600487847E1   3.084889946905271E1  
 8.762690355329949E8     1.317462760671285E1   2.652219434994216E1  
 8.763642131979696E8     1.390878028608879E1   2.172954758867962E1  
 8.764593908629441E8     1.463445350825330E1   1.740729144177318E1  
 8.765545685279188E8     1.535983081002221E1   1.281991837168437E1  
 8.766497461928934E8     1.607515721651307E1   7.794258508201163  
 8.767449238578681E8     1.678036733521491E1   2.054010055977654  
 8.768401015228427E8     1.745500686591968E1  -3.114709390845827  
 8.769352791878172E8     1.811993129774540E1  -8.902019537853004  
 8.770304568527919E8     1.875222133917527E1  -1.535179606807193E1  
 8.771256345177665E8     1.934767802255123E1  -2.144066161678187E1  
 8.772208121827412E8     1.991266633430033E1  -2.768736464561839E1  
 8.773159898477157E8     2.043502782752798E1  -3.430475247460760E1  
 8.774111675126903E8     2.091247974660218E1  -4.098118609033659E1  
